<Qucs Dataset 1.0.1>
<indep i(i-sweep) 101>
0.000000000000e+00
1.980200000000e-04
3.960400000000e-04
5.940600000000e-04
7.920800000000e-04
9.901000000000e-04
1.188120000000e-03
1.386140000000e-03
1.584160000000e-03
1.782180000000e-03
1.980200000000e-03
2.178220000000e-03
2.376240000000e-03
2.574260000000e-03
2.772280000000e-03
2.970300000000e-03
3.168320000000e-03
3.366340000000e-03
3.564360000000e-03
3.762380000000e-03
3.960400000000e-03
4.158420000000e-03
4.356440000000e-03
4.554460000000e-03
4.752480000000e-03
4.950500000000e-03
5.148520000000e-03
5.346540000000e-03
5.544560000000e-03
5.742580000000e-03
5.940600000000e-03
6.138620000000e-03
6.336640000000e-03
6.534660000000e-03
6.732680000000e-03
6.930700000000e-03
7.128720000000e-03
7.326740000000e-03
7.524760000000e-03
7.722780000000e-03
7.920800000000e-03
8.118820000000e-03
8.316840000000e-03
8.514860000000e-03
8.712880000000e-03
8.910900000000e-03
9.108920000000e-03
9.306940000000e-03
9.504960000000e-03
9.702980000000e-03
9.901000000000e-03
1.009902000000e-02
1.029704000000e-02
1.049506000000e-02
1.069308000000e-02
1.089110000000e-02
1.108912000000e-02
1.128714000000e-02
1.148516000000e-02
1.168318000000e-02
1.188120000000e-02
1.207922000000e-02
1.227724000000e-02
1.247526000000e-02
1.267328000000e-02
1.287130000000e-02
1.306932000000e-02
1.326734000000e-02
1.346536000000e-02
1.366338000000e-02
1.386140000000e-02
1.405942000000e-02
1.425744000000e-02
1.445546000000e-02
1.465348000000e-02
1.485150000000e-02
1.504952000000e-02
1.524754000000e-02
1.544556000000e-02
1.564358000000e-02
1.584160000000e-02
1.603962000000e-02
1.623764000000e-02
1.643566000000e-02
1.663368000000e-02
1.683170000000e-02
1.702972000000e-02
1.722774000000e-02
1.742576000000e-02
1.762378000000e-02
1.782180000000e-02
1.801982000000e-02
1.821784000000e-02
1.841586000000e-02
1.861388000000e-02
1.881190000000e-02
1.900992000000e-02
1.920794000000e-02
1.940596000000e-02
1.960398000000e-02
1.980200000000e-02
</indep>
<dep v(vgs) i(i-sweep)>
2.549892530924e-26
-7.097366823661e-01
-7.748817624742e-01
-8.026049464268e-01
-8.209751476863e-01
-8.352741101051e-01
-8.468010711008e-01
-8.567708155806e-01
-8.656625114799e-01
-8.737285974983e-01
-8.811537523375e-01
-8.880693406436e-01
-8.945700780934e-01
-9.007265811680e-01
-9.065929113849e-01
-9.122113409770e-01
-9.176155501902e-01
-9.228328049851e-01
-9.278854756964e-01
-9.327921535849e-01
-9.375684434642e-01
-9.422275907273e-01
-9.467809046022e-01
-9.512381441377e-01
-9.556077761750e-01
-9.598971939299e-01
-9.641128959039e-01
-9.682606177591e-01
-9.723454582491e-01
-9.763719586558e-01
-9.803441852949e-01
-9.842657921397e-01
-9.881400835472e-01
-9.919700417111e-01
-9.957583875512e-01
-9.995075827579e-01
-1.003219890675e+00
-1.006897379365e+00
-1.010541944346e+00
-1.014155336787e+00
-1.017739167071e+00
-1.021294924455e+00
-1.024823990913e+00
-1.028327648383e+00
-1.031807085354e+00
-1.035263410896e+00
-1.038697662313e+00
-1.042110804714e+00
-1.045503747828e+00
-1.048877328804e+00
-1.052232352687e+00
-1.055569563291e+00
-1.058889662685e+00
-1.062193312564e+00
-1.065481142411e+00
-1.068753738083e+00
-1.072011657961e+00
-1.075255428990e+00
-1.078485551809e+00
-1.081702499619e+00
-1.084906720343e+00
-1.088098640420e+00
-1.091278664784e+00
-1.094447184123e+00
-1.097604562656e+00
-1.100751145434e+00
-1.103887276209e+00
-1.107013268534e+00
-1.110129420524e+00
-1.113236035513e+00
-1.116333384170e+00
-1.119421728505e+00
-1.122501331263e+00
-1.125572432586e+00
-1.128635269747e+00
-1.131690061908e+00
-1.134737030782e+00
-1.137776374001e+00
-1.140808301172e+00
-1.143832998420e+00
-1.146850648946e+00
-1.149861432299e+00
-1.152865511149e+00
-1.155863060430e+00
-1.158854234334e+00
-1.161839181119e+00
-1.164818050629e+00
-1.167790985846e+00
-1.170758125143e+00
-1.173719595374e+00
-1.176675530187e+00
-1.179626053354e+00
-1.182571278067e+00
-1.185511322959e+00
-1.188446301810e+00
-1.191376321527e+00
-1.194301485494e+00
-1.197221897305e+00
-1.200137657238e+00
-1.203048858104e+00
-1.205955586681e+00
</dep>
<dep v(vout) i(i-sweep)>
-2.680090434682e-30
3.548691652154e+00
3.874417689112e+00
4.013033909821e+00
4.104885093149e+00
4.176380034706e+00
4.234014961897e+00
4.283863779949e+00
4.328322355131e+00
4.368652867401e+00
4.405778715136e+00
4.440356722819e+00
4.472860475327e+00
4.503643063882e+00
4.532974763599e+00
4.561066966967e+00
4.588088075066e+00
4.614174392942e+00
4.639437798319e+00
4.663971230813e+00
4.687852746785e+00
4.711148512914e+00
4.733915132649e+00
4.756201376385e+00
4.778049575304e+00
4.799496706524e+00
4.820575254237e+00
4.841313915739e+00
4.861738156724e+00
4.881870690362e+00
4.901731855891e+00
4.921339939508e+00
4.940711432713e+00
4.959861275608e+00
4.978803025000e+00
4.997549047515e+00
5.016110625870e+00
5.034498099467e+00
5.052720965661e+00
5.070787959349e+00
5.088707143043e+00
5.106485969205e+00
5.124131338246e+00
5.141649654439e+00
5.159046875447e+00
5.176328547475e+00
5.193499841676e+00
5.210565593606e+00
5.227530321511e+00
5.244398274635e+00
5.261173420851e+00
5.277859501015e+00
5.294460032320e+00
5.310978327263e+00
5.327417504336e+00
5.343780516045e+00
5.360070148378e+00
5.376289038377e+00
5.392439682047e+00
5.408524446810e+00
5.424545580251e+00
5.440505215823e+00
5.456405382005e+00
5.472248002981e+00
5.488034918731e+00
5.503767884517e+00
5.519448559350e+00
5.535078541164e+00
5.550659357130e+00
5.566192448271e+00
5.581679212164e+00
5.597120983227e+00
5.612519027206e+00
5.627874568572e+00
5.643188774173e+00
5.658462771869e+00
5.673697632663e+00
5.688894400574e+00
5.704054058904e+00
5.719177568448e+00
5.734265849116e+00
5.749319782964e+00
5.764340229544e+00
5.779327998332e+00
5.794283884055e+00
5.809208653245e+00
5.824103038483e+00
5.838967748204e+00
5.853803466014e+00
5.868610859049e+00
5.883390560568e+00
5.898143188127e+00
5.912869345448e+00
5.927569607156e+00
5.942244530395e+00
5.956894657651e+00
5.971520514362e+00
5.986122606016e+00
6.000701422538e+00
6.015257443199e+00
6.029791135897e+00
</dep>
